
**** 04/10/19 17:20:20 ******* PSpice Lite (March 2016) ******* ID# 10813 ****

 ** Profile: "simulate-sim"  [ C:\Users\Caitlin\Google Drive\College\fourth Year\Spring 2019\IDE\Lab 8\pspice\heartrate_monitor-PSpic


 ****     CIRCUIT DESCRIPTION


******************************************************************************




** Creating circuit file "sim.cir" 
** WARNING: THIS AUTOMATICALLY GENERATED FILE MAY BE OVERWRITTEN BY SUBSEQUENT SIMULATIONS

*Libraries: 
* Profile Libraries :
* Local Libraries :
* From [PSPICE NETLIST] section of C:\Users\Caitlin\AppData\Roaming\SPB_Data\cdssetup\OrCAD_PSpice\17.2.0\PSpice.ini file:
.lib "nomd.lib" 

*Analysis directives: 
.AC DEC 150 1000 1000000
.OPTIONS ADVCONV
.PROBE64 V(alias(*)) I(alias(*)) W(alias(*)) D(alias(*)) NOISE(alias(*)) 
.INC "..\simulate.net" 



**** INCLUDING simulate.net ****
* source HEARTRATE_MONITOR
R_R1         N05874 N05724  1k TC=0,0 
V_V1         N05432 0 5Vdc
R_R3         N05782 N05850  1k TC=0,0 
R_R4         N05850 N05874  1k TC=0,0 
R_R5         N06108 N05432  100k TC=0,0 
V_V3         N05448 0 5Vdc
C_C2         N05874 N05736  1n  TC=0,0 
R_Rf         N05528 N05432  82.5 TC=0,0 
R_RL         N05528 N05432  20k TC=0,0 
X_U3         N05736 N05850 N05504 0 N05782 uA741
V_V6         N05528 0 DC 0Vdc AC 1Vac 
X_U2         N05528 N05712 N05448 0 N05712 uA741
X_U4         N06108 N05874 V+ V- N05874 uA741
R_R6         0 N06108  100k TC=0,0 
V_V2         N05504 0 5Vdc
R_R2         N05736 N05724  1k TC=0,0 
C_C1         N05712 N05724  1n  TC=0,0 

**** RESUMING sim.cir ****
.END

**** 04/10/19 17:20:20 ******* PSpice Lite (March 2016) ******* ID# 10813 ****

 ** Profile: "simulate-sim"  [ C:\Users\Caitlin\Google Drive\College\fourth Year\Spring 2019\IDE\Lab 8\pspice\heartrate_monitor-PSpic


 ****     Diode MODEL PARAMETERS


******************************************************************************




               X_U3.dx         X_U3.dy         X_U2.dx         X_U2.dy         
          IS  800.000000E-18  800.000000E-18  800.000000E-18  800.000000E-18 
          RS    1               1.000000E-03    1               1.000000E-03 
         CJO                   10.000000E-12                   10.000000E-12 


               X_U4.dx         X_U4.dy         
          IS  800.000000E-18  800.000000E-18 
          RS    1               1.000000E-03 
         CJO                   10.000000E-12 


**** 04/10/19 17:20:20 ******* PSpice Lite (March 2016) ******* ID# 10813 ****

 ** Profile: "simulate-sim"  [ C:\Users\Caitlin\Google Drive\College\fourth Year\Spring 2019\IDE\Lab 8\pspice\heartrate_monitor-PSpic


 ****     BJT MODEL PARAMETERS


******************************************************************************




               X_U3.qx         X_U2.qx         X_U4.qx         
               NPN             NPN             NPN             
       LEVEL    1               1               1            
          IS  800.000000E-18  800.000000E-18  800.000000E-18 
          BF   93.75           93.75           93.75         
          NF    1               1               1            
          BR    1               1               1            
          NR    1               1               1            
         ISS    0               0               0            
          RE    0               0               0            
          RC    0               0               0            
         CJE    0               0               0            
         VJE     .75             .75             .75         
         CJC    0               0               0            
         VJC     .75             .75             .75         
         MJC     .33             .33             .33         
        XCJC    1               1               1            
         CJS    0               0               0            
         VJS     .75             .75             .75         
          KF    0               0               0            
          AF    1               1               1            
          CN    2.42            2.42            2.42         
           D     .87             .87             .87         


**** 04/10/19 17:20:20 ******* PSpice Lite (March 2016) ******* ID# 10813 ****

 ** Profile: "simulate-sim"  [ C:\Users\Caitlin\Google Drive\College\fourth Year\Spring 2019\IDE\Lab 8\pspice\heartrate_monitor-PSpic


 ****     SMALL SIGNAL BIAS SOLUTION       TEMPERATURE =   27.000 DEG C


******************************************************************************



 NODE   VOLTAGE     NODE   VOLTAGE     NODE   VOLTAGE     NODE   VOLTAGE


(   V+)    2.8511  (   V-)    2.1411  (N05432)    5.0000 (N05448)    5.0000     

(N05504)    5.0000 (N05528)    0.0000 (N05712)     .1837 (N05724)    2.4960     

(N05736)    2.4959 (N05782)    2.4958 (N05850)    2.4959 (N05874)    2.4960     

(N06108)    2.4960 (X_U2.6)    1.4691 (X_U2.7)   -1.8465 (X_U2.8)   -1.8465     

(X_U2.9)    0.0000 (X_U3.6) 393.4E-09 (X_U3.7)    2.4958 (X_U3.8)    2.4958     

(X_U3.9)    0.0000 (X_U4.6) 1.941E-06 (X_U4.7)    2.4960 (X_U4.8)    2.4960     

(X_U4.9)    0.0000 (X_U2.10)    -.4550                   (X_U2.11)    4.9218    

(X_U2.12)    4.9998                   (X_U2.13)    -.4276                       

(X_U2.14)    -.4549                   (X_U2.53)    4.0000                       

(X_U2.54)    1.0000                   (X_U2.90)  -40.6050                       

(X_U2.91)   40.0000                   (X_U2.92)  -40.0000                       

(X_U2.99)    2.5000                   (X_U3.10)    1.8882                       

(X_U3.11)    4.9603                   (X_U3.12)    4.9603                       

(X_U3.13)    1.9021                   (X_U3.14)    1.9021                       

(X_U3.53)    4.0000                   (X_U3.54)    1.0000                       

(X_U3.90)-60.29E-06                   (X_U3.91)   40.0000                       

(X_U3.92)  -40.0000                   (X_U3.99)    2.5000                       

(X_U4.10)    1.8884                   (X_U4.11)    2.8114                       

(X_U4.12)    2.8114                   (X_U4.13)    1.9022                       

(X_U4.14)    1.9022                   (X_U4.53)    1.8511                       

(X_U4.54)    3.1411                   (X_U4.90) 93.98E-06                       

(X_U4.91)   40.0000                   (X_U4.92)  -40.0000                       

(X_U4.99)    2.4961                   




    VOLTAGE SOURCE CURRENTS
    NAME         CURRENT

    V_V1        -6.088E-02
    V_V3        -2.901E-04
    V_V6         6.086E-02
    V_V2        -2.903E-04
    X_U3.vb      3.934E-12
    X_U3.vc      1.505E-12
    X_U3.ve      1.360E-12
    X_U3.vlim   -6.029E-08
    X_U3.vlp    -4.000E-11
    X_U3.vln    -4.000E-11
    X_U2.vb      1.469E-05
    X_U2.vc      3.817E-12
    X_U2.ve     -4.061E-02
    X_U2.vlim   -4.061E-02
    X_U2.vlp    -8.061E-11
    X_U2.vln     1.152E-05
    X_U4.vb      1.941E-11
    X_U4.vc     -5.405E-05
    X_U4.ve     -5.426E-05
    X_U4.vlim    9.398E-08
    X_U4.vlp    -4.000E-11
    X_U4.vln    -4.000E-11

    TOTAL POWER DISSIPATION   3.48E-01  WATTS



          JOB CONCLUDED

**** 04/10/19 17:20:20 ******* PSpice Lite (March 2016) ******* ID# 10813 ****

 ** Profile: "simulate-sim"  [ C:\Users\Caitlin\Google Drive\College\fourth Year\Spring 2019\IDE\Lab 8\pspice\heartrate_monitor-PSpic


 ****     JOB STATISTICS SUMMARY


******************************************************************************



  Total job time (using Solver 1)   =         .13
